(1474274935.952003) can0 09F80101#7D0BAA1838854D01
(1474274935.989975) can0 09FD020D#7B7B00A085FAFFFF
(1474274935.990837) can0 09F8012B#130AAA1807864D01
(1474274936.005615) can0 0DF01001#48F0A7428087EA12
(1474274936.008173) can0 19FA0301#48D3620098006400
(1474274936.010396) can0 19FA0401#608748FD0B146812
(1474274936.013401) can0 19FA0401#6173320412FAFFFF
(1474274936.016914) can0 19FA0401#62FFF20A1704206F
(1474274936.019970) can0 19FA0401#63260C01000000F2
(1474274936.022520) can0 19FA0401#64150A2F6730E612
(1474274936.025446) can0 19FA0401#65EFFFFFFFF21DFF
(1474274936.028750) can0 19FA0401#660EB92FDE113000
(1474274936.031426) can0 19FA0401#670000F2197405A1
(1474274936.034432) can0 19FA0401#68584F0C3D000000
(1474274936.037985) can0 19FA0401#69F2105C1F13D6BF
(1474274936.040691) can0 19FA0401#6A11EDFFFFFFF21B
(1474274936.042763) can0 09F11200#FF8076FF7FFF7FFD
(1474274936.043378) can0 19FA0401#6B68122BBCE30F2C
(1474274936.044035) can0 09F10D00#00F8FF7FADEDFFFF
(1474274936.046607) can0 19FA0401#6C000000F2120B11
(1474274936.049358) can0 19FA0401#6DAC5A0B11FDFFFF
(1474274936.051388) can0 1CFF4F00#3B9FFFFFFF8076FF
(1474274936.052694) can0 1DEFFF00#80083B9FF0819C11
(1474274936.053301) can0 19FA0401#6EFFF21A2D3559D3
(1474274936.054759) can0 1DEFFF00#812AE5FFFFFFFFFF
(1474274936.055530) can0 19FA0401#6FAE1219000000F2
(1474274936.058562) can0 19FA0401#70055D0116130C08
(1474274936.061593) can0 19FA0401#7100000000F11FD1
(1474274936.064963) can0 19FA0401#7215718C9CFF0000
(1474274936.067729) can0 19FA0401#730000F0FFFFFFFF
(1474274936.070613) can0 0DF80501#602F48A7428087EA
(1474274936.074035) can0 0DF80501#611280A7AA1E671A
(1474274936.076669) can0 0DF80501#62BE056C6C13395D
(1474274936.079464) can0 0DF80501#63A74D0069992603
(1474274936.082628) can0 0DF80501#640000000013FC09
(1474274936.085466) can0 0DF80501#656200B500081400
(1474274936.088635) can0 0DF80501#660000FFFFFFFFFF
(1474274936.089485) can0 09F8012B#130AAA1807864D01
(1474274936.091310) can0 09F80101#7D0BAA1838854D01
(1474274936.095471) can0 09FD020D#7C7B00A085FAFFFF
(1474274936.098981) can0 09F20108#001A00FFFFFFFFFF
(1474274936.100161) can0 09F20108#02FFFFFFFFFFFFFF
(1474274936.100775) can0 09F20108#01FFFF7F0000FFFF
(1474274936.101655) can0 09F20108#03000000007F7FFF
(1474274936.129560) can0 09F80201#49FC00000400FFFF
(1474274936.142628) can0 09F11200#FF8276FF7FFF7FFD
(1474274936.143479) can0 09F10D00#00F8FF7FADEDFFFF
(1474274936.147631) can0 1CFF4F00#3B9FFFFFFF8276FF
(1474274936.154515) can0 09F80101#7D0BAA1838854D01
(1474274936.178050) can0 15FD0723#84FFFFFFFF7FFFFF
(1474274936.190644) can0 09F8012B#130AAA1807864D01
(1474274936.191497) can0 09FD020D#7D7B004F86FAFFFF
(1474274936.200539) can0 09F8022B#FF00000002000000
(1474274936.222129) can0 11F80E2B#601B01F8F55E0DFD
(1474274936.230449) can0 11F80E2B#61BC4C0153A7A818
(1474274936.240352) can0 11F80E2B#62E51C2F00003F88
(1474274936.243456) can0 09F11200#FF8176FF7FFF7FFD
(1474274936.244389) can0 09F10D00#00F8FF7F8BEDFFFF
(1474274936.249918) can0 11F80E2B#63082151000000FE
(1474274936.250734) can0 1CFF4F00#3B9FFFFFFF8176FF
(1474274936.254609) can0 09F80101#7D0BAA1838854D01
(1474274936.291947) can0 09FD020D#7E7B00A686FAFFFF
(1474274936.302289) can0 11F80E2B#801B01ECF15A0D27
(1474274936.309859) can0 11F80E2B#815F4801AFEAA418
(1474274936.320230) can0 11F80E2B#82DFCEAE000056C0
(1474274936.330476) can0 11F80E2B#8308FFFFFF7F0AFE
(1474274936.342308) can0 09F11200#FF8276FF7FFF7FFD
(1474274936.342968) can0 09F10D00#00F8FF7FADEDFFFF
(1474274936.344290) can0 11F80E2B#A01B0121E3020E78
(1474274936.348001) can0 1CFF4F00#3B9FFFFFFF8276FF
(1474274936.350033) can0 11F80E2B#A11F49017FDC9D18
(1474274936.354427) can0 09F80101#7D0BAA1838854D01
(1474274936.359841) can0 11F80E2B#A2E14ED10000B340
(1474274936.369820) can0 11F80E2B#A3034393000000FE
(1474274936.380332) can0 09F80201#4AFC00000400FFFF
(1474274936.383501) can0 11F80F2B#801A12B8410A1008
(1474274936.389852) can0 11F80F2B#81864D01130AAA18
(1474274936.397568) can0 09FD020D#7F7B00A686FAFFFF
(1474274936.400538) can0 11F80F2B#82E3FFFF00000600
(1474274936.410024) can0 11F80F2B#8326FFFF0074FFFF
(1474274936.420517) can0 09F8012B#130AAA1807864D01
(1474274936.443337) can0 09F11200#FF8276FF7FFF7FFD
(1474274936.444412) can0 09F10D00#00F8FF7F8BEDFFFF
(1474274936.449251) can0 1CFF4F00#3B9FFFFFFF8276FF
(1474274936.454399) can0 09F80101#7D0BAA1838854D01
(1474274936.493807) can0 09FD020D#807B00A085FAFFFF
(1474274936.503431) can0 19FB022B#A04B05F4950313BD
(1474274936.509955) can0 19FB022B#A1590F005A435946
(1474274936.521867) can0 19FB022B#A23720204449414D
(1474274936.530587) can0 19FB022B#A34F4E4420412020
(1474274936.540416) can0 19FB022B#A420202020202020
(1474274936.543422) can0 09F11200#FF8276FF7FFF7FFD
(1474274936.544293) can0 09F10D00#00F8FF7FADEDFFFF
(1474274936.547927) can0 1CFF6300#3B9F0000020001FF
(1474274936.548789) can0 1CFF4F00#3B9FFFFFFF8276FF
(1474274936.549534) can0 19FB022B#A52020253A026400
(1474274936.552318) can0 1DEFFF00#A00D3B9FF0818416
(1474274936.554230) can0 09F80101#7D0BAA1838854D01
(1474274936.555003) can0 1DEFFF00#A16AA84000E50207
(1474274936.560000) can0 19FB022B#A63200E6000E4480
(1474274936.568681) can0 1CFF6805#3B9F000000000000
(1474274936.569618) can0 19FB022B#A73DCD0B68014241
(1474274936.580334) can0 19FB022B#A85243454C4F4E41
(1474274936.590032) can0 19FB022B#A920202020202020
(1474274936.594416) can0 09FD020D#8175009583FAFFFF
(1474274936.599732) can0 09F20108#201A00FFFFFFFFFF
(1474274936.600231) can0 09F20108#21FFFF7F0000FFFF
(1474274936.600873) can0 09F20108#23000000007F7FFF
(1474274936.601955) can0 15F20908#817FFF7FFFFFFFFF
(1474274936.602355) can0 15F20908#8009000600FF7FFF
(1474274936.602962) can0 19FB022B#AA2020202004E0FF
(1474274936.612504) can0 19FB022B#C04B05F4950313BD
(1474274936.620025) can0 19FB022B#C1590F005A435946
(1474274936.629896) can0 09F80201#4BFC00000400FFFF
(1474274936.630506) can0 19FB022B#C23720204449414D
(1474274936.640241) can0 19FB022B#C34F4E4420412020
(1474274936.643533) can0 09F11200#FF8376FF7FFF7FFD
(1474274936.644859) can0 09F10D00#00F8FF7F8BEDFFFF
(1474274936.649998) can0 19FB022B#C420202020202020
(1474274936.650666) can0 1DEFFF08#A010E598C5040404
(1474274936.651078) can0 1CFF4F00#3B9FFFFFFF8376FF
(1474274936.651720) can0 1DEFFF08#A1020103003200C2
(1474274936.652370) can0 1DEFFF08#A2000000FFFFFFFF
(1474274936.654294) can0 09F80101#7D0BAA1838854D01
(1474274936.659993) can0 19FB022B#C52020253A026400
(1474274936.663772) can0 1DEFFF00#C0093B9FF081AE02
(1474274936.665516) can0 1DEFFF00#C1000C00FFFFFFFF
(1474274936.669886) can0 19FB022B#C63200E6000E4480
(1474274936.677846) can0 0DF50B23#40F00300000000FF
(1474274936.678605) can0 09F50323#420000FFFFFFFFFF
(1474274936.679384) can0 19F51323#A00EFFFFFFFFFFFF
(1474274936.680139) can0 15FD0723#85FFFFFFFF7FFFFF
(1474274936.680583) can0 19FB022B#C73DCD0B68014241
(1474274936.681428) can0 19F51323#A1E2ECD600E2ECD6
(1474274936.684659) can0 19F51323#A200FFFFFFFFFFFF
(1474274936.689886) can0 19FB022B#C85243454C4F4E41
(1474274936.699757) can0 09FD020D#8275008F82FAFFFF
(1474274936.701010) can0 19FB022B#C920202020202020
(1474274936.710171) can0 19FB022B#CA2020202004E1FF
(1474274936.720597) can0 09F8012B#130AAA1807864D01
(1474274936.743030) can0 09F11200#FF8576FF7FFF7FFD
(1474274936.743546) can0 09F10D00#00F8FF7F8BEDFFFF
(1474274936.749310) can0 1CFF4F00#3B9FFFFFFF8576FF
(1474274936.754894) can0 09F80101#7D0BAA1838854D01
(1474274936.770352) can0 09F8022B#FF00000002000000
(1474274936.795540) can0 09FD020D#8375002C80FAFFFF
(1474274936.820507) can0 09F8012B#130AAA1807864D01
(1474274936.842606) can0 09F11200#FF8376FF7FFF7FFD
(1474274936.843499) can0 09F10D00#00F8FF7FADEDFFFF
(1474274936.849511) can0 1CFF4F00#3B9FFFFFFF8376FF
(1474274936.854632) can0 09F80101#7D0BAA1838854D01
(1474274936.880197) can0 09F80201#4CFC00000400FFFF
(1474274936.896404) can0 09FD020D#847500787EFAFFFF
(1474274936.920549) can0 09F8012B#130AAA1807864D01
(1474274936.942432) can0 09F11200#FF8276FF7FFF7FFD
(1474274936.943283) can0 09F10D00#00F8FF7FADEDFFFF
(1474274936.947217) can0 1CFF4F00#3B9FFFFFFF8276FF
(1474274936.954713) can0 09F80101#7D0BAA1838854D01
(1474274937.002377) can0 09FD020D#857500C97DFAFFFF
(1474274937.008924) can0 0DF01001#4DF0A74290AEEA12
(1474274937.012195) can0 19FA0301#4DD3620098006400
(1474274937.014235) can0 19FA0401#80874DFD0B146812
(1474274937.017173) can0 19FA0401#817332EC11FCFFFF
(1474274937.019998) can0 09F8012B#130AAA1807864D01
(1474274937.020623) can0 19FA0401#82FFF20A1704206F
(1474274937.023648) can0 19FA0401#835E0C0B000000F2
(1474274937.026568) can0 19FA0401#84150A2F67309B12
(1474274937.029131) can0 19FA0401#85F1FFFFFFF21DFF
(1474274937.029747) can0 09F8022B#FF00000002000000
(1474274937.032046) can0 19FA0401#860EB92F72112F00
(1474274937.035367) can0 19FA0401#870000F2197405A1
(1474274937.038292) can0 19FA0401#8858D80C07000000
(1474274937.041176) can0 19FA0401#89F2105C1F13D6CE
(1474274937.044159) can0 19FA0401#8A11E5FFFFFFF21B
(1474274937.047450) can0 19FA0401#8B68122BBC30101C
(1474274937.050285) can0 19FA0401#8C000000F2120B11
(1474274937.053113) can0 19FA0401#8DAC5A1E11030000
(1474274937.054000) can0 09F11200#FF8176FF7FFF7FFD
(1474274937.055051) can0 09F10D00#00F8FF7FADEDFFFF
(1474274937.055910) can0 19FA0401#8E00F21A2D3559D3
(1474274937.059779) can0 19FA0401#8F34121E000000F2
(1474274937.061542) can0 1CFF4F00#3B9FFFFFFF8176FF
(1474274937.062147) can0 19FA0401#90055D0116131708
(1474274937.063821) can0 1DEFFF00#E0083B9FF0819C11
(1474274937.065060) can0 19FA0401#9100000000F11FD1
(1474274937.065664) can0 1DEFFF00#E12AE6FFFFFFFFFF
(1474274937.068258) can0 19FA0401#9215718C9CFF0000
(1474274937.071430) can0 19FA0401#930000F0FFFFFFFF
(1474274937.074326) can0 0DF80501#802F4DA74290AEEA
(1474274937.077049) can0 0DF80501#811280A7AA1E671A
(1474274937.080051) can0 0DF80501#82BE056C6C13395D
(1474274937.083575) can0 0DF80501#83A74D0069992603
(1474274937.086179) can0 0DF80501#840000000013FC09
(1474274937.089009) can0 0DF80501#856200B500081400
(1474274937.092026) can0 0DF80501#860000FFFFFFFFFF
(1474274937.095485) can0 09F80101#7D0BAA1838854D01
(1474274937.097125) can0 09FD020D#867B00727DFAFFFF
(1474274937.098937) can0 09F20108#401A00FFFFFFFFFF
(1474274937.099533) can0 09F20108#41FFFF7F0000FFFF
(1474274937.100125) can0 09F20108#42FFFFFFFFFFFFFF
(1474274937.100708) can0 09F20108#43000000007F7FFF
(1474274937.101296) can0 19F21108#00A861C4090000FF
(1474274937.130360) can0 09F8012B#130AAA1807864D01
(1474274937.133171) can0 09F80201#4EFC00000100FFFF
(1474274937.146459) can0 09F11200#FF8276FF7FFF7FFD
(1474274937.147222) can0 09F10D00#00F8FF7FADEDFFFF
(1474274937.152256) can0 1CFF4F00#3B9FFFFFFF8276FF
(1474274937.158293) can0 09F80101#7D0BAA1838854D01
(1474274937.178251) can0 15FD0723#86FFFFFFFF7FFFFF
(1474274937.198134) can0 09FD020D#877500267FFAFFFF
(1474274937.230328) can0 09F8012B#130AAA1807864D01
(1474274937.242562) can0 09F11200#FF8276FF7FFF7FFD
(1474274937.243328) can0 09F10D00#00F8FF7FADEDFFFF
(1474274937.249451) can0 1CFF4F00#3B9FFFFFFF8276FF
(1474274937.258243) can0 09F80101#7D0BAA1838854D01
(1474274937.280588) can0 09F8022B#FF00000001000000
(1474274937.304366) can0 09FD020D#8875008380FAFFFF
(1474274937.330068) can0 09F8012B#130AAA1807864D01
(1474274937.342853) can0 09F11200#FF8176FF7FFF7FFD
(1474274937.343376) can0 09F10D00#00F8FF7FADEDFFFF
(1474274937.348023) can0 1CFF4F00#3B9FFFFFFF8176FF
(1474274937.359226) can0 09F80101#7D0BAA1838854D01
(1474274937.383231) can0 09F80201#4FFC00000100FFFF
(1474274937.399231) can0 09FD020D#897B004384FAFFFF
(1474274937.430397) can0 09F8012B#130AAA1807864D01
(1474274937.442856) can0 09F11200#FF7E76FF7FFF7FFD
(1474274937.443494) can0 09F10D00#00F8FF7FADEDFFFF
(1474274937.449377) can0 1CFF4F00#3B9FFFFFFF7E76FF
(1474274937.458729) can0 09F80101#7D0BAA1838854D01
(1474274937.500438) can0 09FD020D#8A7B000388FAFFFF
(1474274937.503146) can0 11F80E2B#C01B01905D5A0DE9
(1474274937.510461) can0 11F80E2B#C15248013EE1A418
(1474274937.520476) can0 11F80E2B#C2D56D5B00004EC0
(1474274937.530422) can0 11F80E2B#C301FFFFFF7F00FE
(1474274937.542001) can0 1DFB012B#E01A046832220045
(1474274937.542500) can0 09F11200#FF7B76FF7FFF7FFD
(1474274937.543761) can0 09F10D00#00F8FF7FADEDFFFF
(1474274937.547297) can0 1CFF6300#3B9F0000020001FF
(1474274937.547927) can0 1CFF4F00#3B9FFFFFFF7B76FF
(1474274937.549660) can0 1DFB012B#E1974201D8C8AF18
(1474274937.552372) can0 1DEFFF00#000D3B9FF0818416
(1474274937.554325) can0 1DEFFF00#016AA84000E60207
(1474274937.558040) can0 09F80101#7D0BAA1838854D01
(1474274937.559929) can0 1DFB012B#E20090AEEA127088
(1474274937.569959) can0 1DFB012B#E309A742F000FCFF
(1474274937.590587) can0 09F8012B#130AAA1807864D01
(1474274937.599603) can0 09F20108#601A00FFFFFFFFFF
(1474274937.600196) can0 09F20108#61FFFF7F0000FFFF
(1474274937.600868) can0 09F20108#63000000007F7FFF
(1474274937.601948) can0 15F20908#A009000600FF7FFF
(1474274937.602409) can0 09F8022B#FF00000001000000
(1474274937.603070) can0 15F20908#A17FFF7FFFFFFFFF
(1474274937.605591) can0 09FD020D#8B7B00B889FAFFFF
(1474274937.611879) can0 11F80E2B#E01B01406D5E0D72
(1474274937.619964) can0 11F80E2B#E17148011BF2A418
(1474274937.630032) can0 11F80E2B#E2E4734700004FC0
(1474274937.633533) can0 09F80201#50FC00000100FFFF
(1474274937.639731) can0 11F80E2B#E300FFFFFF7F03FE
(1474274937.643687) can0 09F11200#FF7876FF7FFF7FFD
(1474274937.644266) can0 09F10D00#00F8FF7F8BEDFFFF
(1474274937.650340) can0 1DEFFF08#C010E598C5040404
(1474274937.651011) can0 1CFF4F00#3B9FFFFFFF7876FF
(1474274937.651552) can0 1DEFFF08#C1020103003200C5
(1474274937.651900) can0 1DEFFF08#C2000000FFFFFFFF
(1474274937.655737) can0 1DEFFF00#20093B9FF081AE02
(1474274937.657126) can0 1DEFFF00#21000C00FFFFFFFF
(1474274937.658016) can0 09F80101#7D0BAA1838854D01
(1474274937.678305) can0 0DF50B23#41F00300000000FF
(1474274937.678693) can0 19F51323#C00EFFFFFFFFFFFF
(1474274937.679272) can0 15FD0723#87FFFFFFFF7FFFFF
(1474274937.682302) can0 19F51323#C1E2ECD600E2ECD6
(1474274937.685409) can0 19F51323#C200FFFFFFFFFFFF
(1474274937.701261) can0 09FD020D#8C7B00728CFAFFFF
(1474274937.730499) can0 09F8012B#130AAA1807864D01
(1474274937.742310) can0 09F11200#FF7876FF7FFF7FFD
(1474274937.742968) can0 09F10D00#00F8FF7F8BEDFFFF
(1474274937.749297) can0 1CFF4F00#3B9FFFFFFF7876FF
(1474274937.758707) can0 09F80101#7D0BAA1838854D01
(1474274937.784359) can0 15FD0A20#FF00002A980F00FF
(1474274937.802373) can0 09FD020D#8D7B00778DFAFFFF
(1474274937.830442) can0 09F8012B#130AAA1807864D01
(1474274937.842539) can0 09F11200#FF7B76FF7FFF7FFD
(1474274937.842918) can0 09F10D00#00F8FF7F8BEDFFFF
(1474274937.849172) can0 1CFF4F00#3B9FFFFFFF7B76FF
(1474274937.858627) can0 09F80101#7D0BAA1838854D01
(1474274937.880534) can0 09F8022B#FF00000001000000
(1474274937.883578) can0 09F80201#51FC00000100FFFF
(1474274937.908079) can0 09FD020D#8E8000208DFAFFFF
(1474274937.930102) can0 09F8012B#130AAA1807864D01
(1474274937.942548) can0 09F11200#FF7D76FF7FFF7FFD
(1474274937.942940) can0 09F10D00#00F8FF7F68EDFFFF
(1474274937.947757) can0 1CFF4F00#3B9FFFFFFF7D76FF
(1474274937.956126) can0 1CFF6805#3B9F000000000000
(1474274937.958785) can0 09F80101#7D0BAA1838854D01
(1474274938.004058) can0 09FD020D#8F80006C8BFAFFFF
(1474274938.012083) can0 0DF01001#52F0A742A0D5EA12
(1474274938.015099) can0 19FA0301#52D3620098006400
(1474274938.017163) can0 19FA0401#A08752FD0B146812
(1474274938.020432) can0 19FA0401#A17332A011FCFFFF
(1474274938.022272) can0 11F80E2B#001B01B8125A0D1C
(1474274938.023009) can0 19FA0401#A2FFF20A1704206F
